                          ravisahu2024102024_claadder
                          Transient Analysis  Wed Dec  3 02:57:16  2025
--------------------------------------------------------------------------------
Index   time            va0#branch      vdd             vdd#branch      
--------------------------------------------------------------------------------
0	0.000000e+00	0.000000e+00	1.800000e+00	-2.01277e-11	
1	1.000000e-14	-1.25185e-03	1.800000e+00	8.311018e-04	
2	2.000000e-14	-1.29586e-03	1.800000e+00	8.548445e-04	
3	4.000000e-14	-1.36619e-03	1.800000e+00	8.957404e-04	
4	8.000000e-14	-1.44154e-03	1.800000e+00	9.486629e-04	
5	1.600000e-13	-1.49976e-03	1.800000e+00	9.984058e-04	
6	3.200000e-13	-1.52882e-03	1.800000e+00	1.031077e-03	
7	6.400000e-13	-1.54817e-03	1.800000e+00	1.063500e-03	
8	1.280000e-12	-1.58525e-03	1.800000e+00	1.121538e-03	
9	2.280000e-12	-1.63086e-03	1.800000e+00	1.187434e-03	
10	3.280000e-12	-1.83362e-03	1.800000e+00	1.258832e-03	
11	4.280000e-12	-1.88500e-03	1.800000e+00	1.246577e-03	
12	5.280000e-12	-1.95702e-03	1.800000e+00	1.189137e-03	
13	6.280000e-12	-1.99801e-03	1.800000e+00	1.106199e-03	
14	7.280000e-12	-2.05685e-03	1.800000e+00	1.003361e-03	
15	8.280000e-12	-2.09081e-03	1.800000e+00	8.986491e-04	
16	9.280000e-12	-2.15426e-03	1.800000e+00	8.010838e-04	
17	1.000000e-11	-2.12762e-03	1.800000e+00	6.916797e-04	
18	1.010000e-11	-6.18108e-04	1.800000e+00	-2.88445e-04	
19	1.030000e-11	-4.36636e-04	1.800000e+00	-4.21582e-04	
20	1.070000e-11	-4.71741e-04	1.800000e+00	-4.11331e-04	
21	1.150000e-11	-3.64994e-04	1.800000e+00	-4.79375e-04	
22	1.250000e-11	-4.23931e-04	1.800000e+00	-4.38232e-04	
23	1.350000e-11	-3.55826e-04	1.800000e+00	-4.73619e-04	
24	1.450000e-11	-3.92459e-04	1.800000e+00	-4.49864e-04	
25	1.550000e-11	-3.55770e-04	1.800000e+00	-4.57292e-04	
26	1.650000e-11	-3.97759e-04	1.800000e+00	-4.24585e-04	
27	1.750000e-11	-3.67578e-04	1.800000e+00	-4.29042e-04	
28	1.850000e-11	-4.00572e-04	1.800000e+00	-4.02056e-04	
29	1.950000e-11	-3.74956e-04	1.800000e+00	-4.04446e-04	
30	2.050000e-11	-4.00954e-04	1.800000e+00	-3.81067e-04	
31	2.150000e-11	-3.78208e-04	1.800000e+00	-3.81680e-04	
32	2.250000e-11	-3.98165e-04	1.800000e+00	-3.59848e-04	
33	2.350000e-11	-3.76222e-04	1.800000e+00	-3.57448e-04	
34	2.450000e-11	-3.89308e-04	1.800000e+00	-3.32293e-04	
35	2.550000e-11	-3.63922e-04	1.800000e+00	-3.18089e-04	
36	2.650000e-11	-3.64719e-04	1.800000e+00	-2.76444e-04	
37	2.750000e-11	-3.24786e-04	1.800000e+00	-2.48843e-04	
38	2.850000e-11	-3.05210e-04	1.800000e+00	-2.05297e-04	
39	2.950000e-11	-2.53574e-04	1.800000e+00	-1.80156e-04	
40	3.050000e-11	-2.26930e-04	1.800000e+00	-1.41610e-04	
41	3.150000e-11	-1.76920e-04	1.800000e+00	-1.22312e-04	
42	3.250000e-11	-1.54362e-04	1.800000e+00	-9.08597e-05	
43	3.350000e-11	-1.13083e-04	1.800000e+00	-7.87840e-05	
44	3.450000e-11	-9.88760e-05	1.800000e+00	-5.46261e-05	
45	3.550000e-11	-6.75212e-05	1.800000e+00	-4.91533e-05	
46	3.650000e-11	-6.12896e-05	1.800000e+00	-3.09319e-05	
47	3.750000e-11	-3.80434e-05	1.800000e+00	-3.04192e-05	
48	3.850000e-11	-3.76848e-05	1.800000e+00	-1.63493e-05	
49	3.950000e-11	-2.01065e-05	1.800000e+00	-1.91374e-05	
50	4.050000e-11	-2.35176e-05	1.800000e+00	-7.71292e-06	
51	4.150000e-11	-9.59609e-06	1.800000e+00	-1.25448e-05	
52	4.250000e-11	-1.52298e-05	1.800000e+00	-2.71483e-06	
53	4.350000e-11	-3.58363e-06	1.800000e+00	-8.76594e-06	
54	4.450000e-11	-1.04437e-05	1.800000e+00	1.396250e-07	

Index   time            va0#branch      vdd             vdd#branch      
--------------------------------------------------------------------------------
55	4.550000e-11	-1.89222e-07	1.800000e+00	-6.60998e-06	
56	4.650000e-11	-7.69625e-06	1.800000e+00	1.756043e-06	
57	4.750000e-11	1.696066e-06	1.800000e+00	-5.39773e-06	
58	4.850000e-11	-6.11563e-06	1.800000e+00	2.670139e-06	
59	4.950000e-11	2.732493e-06	1.800000e+00	-4.71549e-06	
60	5.050000e-11	-5.20239e-06	1.800000e+00	3.184999e-06	
61	5.150000e-11	3.292965e-06	1.800000e+00	-4.33322e-06	
62	5.250000e-11	-4.66922e-06	1.800000e+00	3.475021e-06	
63	5.350000e-11	3.589188e-06	1.800000e+00	-4.11955e-06	
64	5.450000e-11	-4.35310e-06	1.800000e+00	3.638595e-06	
65	5.550000e-11	3.739973e-06	1.800000e+00	-4.00046e-06	
66	5.650000e-11	-4.16165e-06	1.800000e+00	3.731081e-06	
67	5.750000e-11	3.811655e-06	1.800000e+00	-3.93435e-06	
68	5.850000e-11	-4.04248e-06	1.800000e+00	3.783587e-06	
69	5.950000e-11	3.841074e-06	1.800000e+00	-3.89786e-06	
70	6.050000e-11	-3.96580e-06	1.800000e+00	3.813582e-06	
71	6.150000e-11	3.848560e-06	1.800000e+00	-3.87792e-06	
72	6.250000e-11	-3.91456e-06	1.800000e+00	3.830874e-06	
73	6.350000e-11	3.845223e-06	1.800000e+00	-3.86717e-06	
74	6.450000e-11	-3.87894e-06	1.800000e+00	3.840975e-06	
75	6.550000e-11	3.837052e-06	1.800000e+00	-3.86152e-06	
76	6.650000e-11	-3.85320e-06	1.800000e+00	3.846984e-06	
77	6.750000e-11	3.827204e-06	1.800000e+00	-3.85867e-06	
78	6.850000e-11	-3.83396e-06	1.800000e+00	3.850647e-06	
79	6.950000e-11	3.817276e-06	1.800000e+00	-3.85735e-06	
80	7.050000e-11	-3.81914e-06	1.800000e+00	3.852950e-06	
81	7.150000e-11	3.808025e-06	1.800000e+00	-3.85683e-06	
82	7.250000e-11	-3.80746e-06	1.800000e+00	3.854452e-06	
83	7.350000e-11	3.799757e-06	1.800000e+00	-3.85674e-06	
84	7.450000e-11	-3.79809e-06	1.800000e+00	3.855473e-06	
85	7.550000e-11	3.792543e-06	1.800000e+00	-3.85685e-06	
86	7.650000e-11	-3.79048e-06	1.800000e+00	3.856196e-06	
87	7.750000e-11	3.786341e-06	1.800000e+00	-3.85705e-06	
88	7.850000e-11	-3.78424e-06	1.800000e+00	3.856729e-06	
89	7.950000e-11	3.781816e-06	1.800000e+00	-3.85691e-06	
90	8.050000e-11	-3.77954e-06	1.800000e+00	3.856994e-06	
91	8.150000e-11	3.777388e-06	1.800000e+00	-3.85724e-06	
92	8.250000e-11	-3.77552e-06	1.800000e+00	3.857282e-06	
93	8.350000e-11	3.773653e-06	1.800000e+00	-3.85753e-06	
94	8.450000e-11	-3.77211e-06	1.800000e+00	3.857553e-06	
95	8.550000e-11	3.770506e-06	1.800000e+00	-3.85779e-06	
96	8.650000e-11	-3.76922e-06	1.800000e+00	3.857791e-06	
97	8.750000e-11	3.767855e-06	1.800000e+00	-3.85800e-06	
98	8.850000e-11	-3.76678e-06	1.800000e+00	3.857994e-06	
99	8.950000e-11	3.765372e-06	1.800000e+00	-3.85830e-06	
100	9.050000e-11	-3.76464e-06	1.800000e+00	3.858176e-06	
101	9.150000e-11	3.763821e-06	1.800000e+00	-3.85826e-06	
102	9.250000e-11	-3.76303e-06	1.800000e+00	3.858267e-06	
103	9.350000e-11	3.762299e-06	1.800000e+00	-3.85837e-06	
104	9.450000e-11	-3.76165e-06	1.800000e+00	3.858368e-06	
105	9.550000e-11	3.761011e-06	1.800000e+00	-3.85848e-06	
106	9.650000e-11	-3.76047e-06	1.800000e+00	3.858463e-06	
107	9.750000e-11	3.759799e-06	1.800000e+00	-3.85863e-06	
108	9.850000e-11	-3.75944e-06	1.800000e+00	3.858554e-06	
109	9.950000e-11	3.759040e-06	1.800000e+00	-3.85861e-06	
110	1.005000e-10	-3.75865e-06	1.800000e+00	3.858601e-06	
111	1.015000e-10	3.758293e-06	1.800000e+00	-3.85867e-06	
112	1.025000e-10	-3.75797e-06	1.800000e+00	3.858653e-06	

Index   time            va0#branch      vdd             vdd#branch      
--------------------------------------------------------------------------------
113	1.035000e-10	3.757584e-06	1.800000e+00	-3.85876e-06	
114	1.045000e-10	-3.75737e-06	1.800000e+00	3.858707e-06	
115	1.055000e-10	3.757140e-06	1.800000e+00	-3.85875e-06	
116	1.065000e-10	-3.75691e-06	1.800000e+00	3.858736e-06	
117	1.075000e-10	3.756699e-06	1.800000e+00	-3.85879e-06	
118	1.085000e-10	-3.75651e-06	1.800000e+00	3.858769e-06	
119	1.095000e-10	3.756282e-06	1.800000e+00	-3.85885e-06	
120	1.105000e-10	-3.75615e-06	1.800000e+00	3.858800e-06	
121	1.115000e-10	3.756019e-06	1.800000e+00	-3.85884e-06	
122	1.125000e-10	-3.75588e-06	1.800000e+00	3.858820e-06	
123	1.135000e-10	3.755726e-06	1.800000e+00	-3.85888e-06	
124	1.145000e-10	-3.75563e-06	1.800000e+00	3.858841e-06	
125	1.155000e-10	3.755541e-06	1.800000e+00	-3.85888e-06	
126	1.165000e-10	-3.75544e-06	1.800000e+00	3.858855e-06	
127	1.175000e-10	3.755334e-06	1.800000e+00	-3.85891e-06	
128	1.185000e-10	-3.75527e-06	1.800000e+00	3.858869e-06	
129	1.195000e-10	3.755184e-06	1.800000e+00	-3.85892e-06	
130	1.205000e-10	-3.75512e-06	1.800000e+00	3.858880e-06	
131	1.215000e-10	3.755057e-06	1.800000e+00	-3.85892e-06	
132	1.225000e-10	-3.75501e-06	1.800000e+00	3.858889e-06	
133	1.235000e-10	3.754951e-06	1.800000e+00	-3.85893e-06	
134	1.245000e-10	-3.75491e-06	1.800000e+00	3.858896e-06	
135	1.255000e-10	3.754862e-06	1.800000e+00	-3.85894e-06	
136	1.265000e-10	-3.75482e-06	1.800000e+00	3.858902e-06	
137	1.275000e-10	3.754787e-06	1.800000e+00	-3.85894e-06	
138	1.285000e-10	-3.75475e-06	1.800000e+00	3.858907e-06	
139	1.295000e-10	3.754724e-06	1.800000e+00	-3.85894e-06	
140	1.305000e-10	-3.75470e-06	1.800000e+00	3.858911e-06	
141	1.315000e-10	3.754672e-06	1.800000e+00	-3.85895e-06	
142	1.325000e-10	-3.75465e-06	1.800000e+00	3.858914e-06	
143	1.335000e-10	3.754628e-06	1.800000e+00	-3.85895e-06	
144	1.345000e-10	-3.75461e-06	1.800000e+00	3.858917e-06	
145	1.355000e-10	3.754591e-06	1.800000e+00	-3.85895e-06	
146	1.365000e-10	-3.75457e-06	1.800000e+00	3.858919e-06	
147	1.375000e-10	3.754560e-06	1.800000e+00	-3.85896e-06	
148	1.385000e-10	-3.75455e-06	1.800000e+00	3.858921e-06	
149	1.395000e-10	3.754534e-06	1.800000e+00	-3.85896e-06	
150	1.405000e-10	-3.75452e-06	1.800000e+00	3.858923e-06	
151	1.415000e-10	3.754513e-06	1.800000e+00	-3.85896e-06	
152	1.425000e-10	-3.75450e-06	1.800000e+00	3.858924e-06	
153	1.435000e-10	3.754494e-06	1.800000e+00	-3.85896e-06	
154	1.445000e-10	-3.75449e-06	1.800000e+00	3.858925e-06	
155	1.455000e-10	3.754479e-06	1.800000e+00	-3.85896e-06	
156	1.465000e-10	-3.75447e-06	1.800000e+00	3.858926e-06	
157	1.475000e-10	3.754467e-06	1.800000e+00	-3.85896e-06	
158	1.485000e-10	-3.75446e-06	1.800000e+00	3.858927e-06	
159	1.495000e-10	3.754456e-06	1.800000e+00	-3.85896e-06	
160	1.505000e-10	-3.75445e-06	1.800000e+00	3.858928e-06	
161	1.515000e-10	3.754447e-06	1.800000e+00	-3.85896e-06	
162	1.525000e-10	-3.75444e-06	1.800000e+00	3.858928e-06	
163	1.535000e-10	3.754440e-06	1.800000e+00	-3.85896e-06	
164	1.545000e-10	-3.75444e-06	1.800000e+00	3.858929e-06	
165	1.555000e-10	3.754434e-06	1.800000e+00	-3.85896e-06	
166	1.565000e-10	-3.75443e-06	1.800000e+00	3.858929e-06	
167	1.575000e-10	3.754428e-06	1.800000e+00	-3.85896e-06	
168	1.585000e-10	-3.75443e-06	1.800000e+00	3.858929e-06	
169	1.595000e-10	3.754424e-06	1.800000e+00	-3.85897e-06	
170	1.605000e-10	-3.75442e-06	1.800000e+00	3.858930e-06	

Index   time            va0#branch      vdd             vdd#branch      
--------------------------------------------------------------------------------
171	1.615000e-10	3.754420e-06	1.800000e+00	-3.85897e-06	
172	1.625000e-10	-3.75442e-06	1.800000e+00	3.858930e-06	
173	1.635000e-10	3.754417e-06	1.800000e+00	-3.85897e-06	
174	1.645000e-10	-3.75442e-06	1.800000e+00	3.858930e-06	
175	1.655000e-10	3.754415e-06	1.800000e+00	-3.85897e-06	
176	1.665000e-10	-3.75441e-06	1.800000e+00	3.858930e-06	
177	1.675000e-10	3.754413e-06	1.800000e+00	-3.85897e-06	
178	1.685000e-10	-3.75441e-06	1.800000e+00	3.858930e-06	
179	1.695000e-10	3.754411e-06	1.800000e+00	-3.85897e-06	
180	1.705000e-10	-3.75441e-06	1.800000e+00	3.858930e-06	
181	1.715000e-10	3.754409e-06	1.800000e+00	-3.85897e-06	
182	1.725000e-10	-3.75441e-06	1.800000e+00	3.858931e-06	
183	1.735000e-10	3.754408e-06	1.800000e+00	-3.85897e-06	
184	1.745000e-10	-3.75441e-06	1.800000e+00	3.858931e-06	
185	1.755000e-10	3.754407e-06	1.800000e+00	-3.85897e-06	
186	1.765000e-10	-3.75441e-06	1.800000e+00	3.858931e-06	
187	1.775000e-10	3.754406e-06	1.800000e+00	-3.85897e-06	
188	1.785000e-10	-3.75441e-06	1.800000e+00	3.858931e-06	
189	1.795000e-10	3.754405e-06	1.800000e+00	-3.85897e-06	
190	1.805000e-10	-3.75441e-06	1.800000e+00	3.858931e-06	
191	1.815000e-10	3.754405e-06	1.800000e+00	-3.85897e-06	
192	1.825000e-10	-3.75440e-06	1.800000e+00	3.858931e-06	
193	1.835000e-10	3.754404e-06	1.800000e+00	-3.85897e-06	
194	1.845000e-10	-3.75440e-06	1.800000e+00	3.858931e-06	
195	1.855000e-10	3.754404e-06	1.800000e+00	-3.85897e-06	
196	1.865000e-10	-3.75440e-06	1.800000e+00	3.858931e-06	
197	1.875000e-10	3.754404e-06	1.800000e+00	-3.85897e-06	
198	1.885000e-10	-3.75440e-06	1.800000e+00	3.858931e-06	
199	1.895000e-10	3.754403e-06	1.800000e+00	-3.85897e-06	
200	1.905000e-10	-3.75440e-06	1.800000e+00	3.858931e-06	
201	1.915000e-10	3.754403e-06	1.800000e+00	-3.85897e-06	
202	1.925000e-10	-3.75440e-06	1.800000e+00	3.858931e-06	
203	1.935000e-10	3.754403e-06	1.800000e+00	-3.85897e-06	
204	1.945000e-10	-3.75440e-06	1.800000e+00	3.858931e-06	
205	1.955000e-10	3.754403e-06	1.800000e+00	-3.85897e-06	
206	1.965000e-10	-3.75440e-06	1.800000e+00	3.858931e-06	
207	1.975000e-10	3.754402e-06	1.800000e+00	-3.85897e-06	
208	1.985000e-10	-3.75440e-06	1.800000e+00	3.858931e-06	
209	1.995000e-10	3.754402e-06	1.800000e+00	-3.85897e-06	
210	2.005000e-10	-3.75440e-06	1.800000e+00	3.858931e-06	
211	2.015000e-10	3.754402e-06	1.800000e+00	-3.85897e-06	
212	2.025000e-10	-3.75440e-06	1.800000e+00	3.858931e-06	
213	2.035000e-10	3.754402e-06	1.800000e+00	-3.85897e-06	
214	2.045000e-10	-3.75440e-06	1.800000e+00	3.858931e-06	
215	2.055000e-10	3.754402e-06	1.800000e+00	-3.85897e-06	
216	2.065000e-10	-3.75440e-06	1.800000e+00	3.858931e-06	
217	2.075000e-10	3.754402e-06	1.800000e+00	-3.85897e-06	
218	2.085000e-10	-3.75440e-06	1.800000e+00	3.858931e-06	
219	2.095000e-10	3.754402e-06	1.800000e+00	-3.85897e-06	
220	2.105000e-10	-3.75440e-06	1.800000e+00	3.858931e-06	
221	2.115000e-10	3.754402e-06	1.800000e+00	-3.85897e-06	
222	2.125000e-10	-3.75440e-06	1.800000e+00	3.858931e-06	
223	2.135000e-10	3.754402e-06	1.800000e+00	-3.85897e-06	
224	2.145000e-10	-3.75440e-06	1.800000e+00	3.858931e-06	
225	2.155000e-10	3.754402e-06	1.800000e+00	-3.85897e-06	
226	2.165000e-10	-3.75440e-06	1.800000e+00	3.858931e-06	
227	2.175000e-10	3.754402e-06	1.800000e+00	-3.85897e-06	
228	2.185000e-10	-3.75440e-06	1.800000e+00	3.858931e-06	

Index   time            va0#branch      vdd             vdd#branch      
--------------------------------------------------------------------------------
229	2.195000e-10	3.754402e-06	1.800000e+00	-3.85897e-06	
230	2.205000e-10	-3.75440e-06	1.800000e+00	3.858931e-06	
231	2.215000e-10	3.754402e-06	1.800000e+00	-3.85897e-06	
232	2.225000e-10	-3.75440e-06	1.800000e+00	3.858931e-06	
233	2.235000e-10	3.754402e-06	1.800000e+00	-3.85897e-06	
234	2.245000e-10	-3.75440e-06	1.800000e+00	3.858931e-06	
235	2.255000e-10	3.754402e-06	1.800000e+00	-3.85897e-06	
236	2.265000e-10	-3.75440e-06	1.800000e+00	3.858931e-06	
237	2.275000e-10	3.754402e-06	1.800000e+00	-3.85897e-06	
238	2.285000e-10	-3.75440e-06	1.800000e+00	3.858931e-06	
239	2.295000e-10	3.754402e-06	1.800000e+00	-3.85897e-06	
240	2.305000e-10	-3.75440e-06	1.800000e+00	3.858931e-06	
241	2.315000e-10	3.754402e-06	1.800000e+00	-3.85897e-06	
242	2.325000e-10	-3.75440e-06	1.800000e+00	3.858931e-06	
243	2.335000e-10	3.754402e-06	1.800000e+00	-3.85897e-06	
244	2.345000e-10	-3.75440e-06	1.800000e+00	3.858931e-06	
245	2.355000e-10	3.754402e-06	1.800000e+00	-3.85897e-06	
246	2.365000e-10	-3.75440e-06	1.800000e+00	3.858931e-06	
247	2.375000e-10	3.754402e-06	1.800000e+00	-3.85897e-06	
248	2.385000e-10	-3.75440e-06	1.800000e+00	3.858931e-06	
249	2.395000e-10	3.754402e-06	1.800000e+00	-3.85897e-06	
250	2.405000e-10	-3.75440e-06	1.800000e+00	3.858931e-06	
251	2.415000e-10	3.754402e-06	1.800000e+00	-3.85897e-06	
252	2.425000e-10	-3.75440e-06	1.800000e+00	3.858931e-06	
253	2.435000e-10	3.754402e-06	1.800000e+00	-3.85897e-06	
254	2.445000e-10	-3.75440e-06	1.800000e+00	3.858931e-06	
255	2.455000e-10	3.754402e-06	1.800000e+00	-3.85897e-06	
256	2.465000e-10	-3.75440e-06	1.800000e+00	3.858931e-06	
257	2.475000e-10	3.754402e-06	1.800000e+00	-3.85897e-06	
258	2.485000e-10	-3.75440e-06	1.800000e+00	3.858931e-06	
259	2.495000e-10	3.754402e-06	1.800000e+00	-3.85897e-06	
260	2.505000e-10	-3.75440e-06	1.800000e+00	3.858931e-06	
261	2.515000e-10	3.754402e-06	1.800000e+00	-3.85897e-06	
262	2.525000e-10	-3.75440e-06	1.800000e+00	3.858931e-06	
263	2.535000e-10	3.754402e-06	1.800000e+00	-3.85897e-06	
264	2.545000e-10	-3.75440e-06	1.800000e+00	3.858931e-06	
265	2.555000e-10	3.754402e-06	1.800000e+00	-3.85897e-06	
266	2.565000e-10	-3.75440e-06	1.800000e+00	3.858931e-06	
267	2.575000e-10	3.754402e-06	1.800000e+00	-3.85897e-06	
268	2.585000e-10	-3.75440e-06	1.800000e+00	3.858931e-06	
269	2.595000e-10	3.754402e-06	1.800000e+00	-3.85897e-06	
270	2.605000e-10	-3.75440e-06	1.800000e+00	3.858931e-06	
271	2.615000e-10	3.754402e-06	1.800000e+00	-3.85897e-06	
272	2.625000e-10	-3.75440e-06	1.800000e+00	3.858931e-06	
273	2.635000e-10	3.754402e-06	1.800000e+00	-3.85897e-06	
274	2.645000e-10	-3.75440e-06	1.800000e+00	3.858931e-06	
275	2.655000e-10	3.754402e-06	1.800000e+00	-3.85897e-06	
276	2.665000e-10	-3.75440e-06	1.800000e+00	3.858931e-06	
277	2.675000e-10	3.754402e-06	1.800000e+00	-3.85897e-06	
278	2.685000e-10	-3.75440e-06	1.800000e+00	3.858931e-06	
279	2.695000e-10	3.754402e-06	1.800000e+00	-3.85897e-06	
280	2.705000e-10	-3.75440e-06	1.800000e+00	3.858931e-06	
281	2.715000e-10	3.754402e-06	1.800000e+00	-3.85897e-06	
282	2.725000e-10	-3.75440e-06	1.800000e+00	3.858931e-06	
283	2.735000e-10	3.754402e-06	1.800000e+00	-3.85897e-06	
284	2.745000e-10	-3.75440e-06	1.800000e+00	3.858931e-06	
285	2.755000e-10	3.754402e-06	1.800000e+00	-3.85897e-06	
286	2.765000e-10	-3.75440e-06	1.800000e+00	3.858931e-06	

Index   time            va0#branch      vdd             vdd#branch      
--------------------------------------------------------------------------------
287	2.775000e-10	3.754402e-06	1.800000e+00	-3.85897e-06	
288	2.785000e-10	-3.75440e-06	1.800000e+00	3.858931e-06	
289	2.795000e-10	3.754402e-06	1.800000e+00	-3.85897e-06	
290	2.805000e-10	-3.75440e-06	1.800000e+00	3.858931e-06	
291	2.815000e-10	3.754402e-06	1.800000e+00	-3.85897e-06	
292	2.825000e-10	-3.75440e-06	1.800000e+00	3.858931e-06	
293	2.835000e-10	3.754402e-06	1.800000e+00	-3.85897e-06	
294	2.845000e-10	-3.75440e-06	1.800000e+00	3.858931e-06	
295	2.855000e-10	3.754402e-06	1.800000e+00	-3.85897e-06	
296	2.865000e-10	-3.75440e-06	1.800000e+00	3.858931e-06	
297	2.875000e-10	3.754402e-06	1.800000e+00	-3.85897e-06	
298	2.885000e-10	-3.75440e-06	1.800000e+00	3.858931e-06	
299	2.895000e-10	3.754402e-06	1.800000e+00	-3.85897e-06	
300	2.905000e-10	-3.75440e-06	1.800000e+00	3.858931e-06	
301	2.915000e-10	3.754402e-06	1.800000e+00	-3.85897e-06	
302	2.925000e-10	-3.75440e-06	1.800000e+00	3.858931e-06	
303	2.935000e-10	3.754402e-06	1.800000e+00	-3.85897e-06	
304	2.945000e-10	-3.75440e-06	1.800000e+00	3.858931e-06	
305	2.955000e-10	3.754402e-06	1.800000e+00	-3.85897e-06	
306	2.965000e-10	-3.75440e-06	1.800000e+00	3.858931e-06	
307	2.975000e-10	3.754402e-06	1.800000e+00	-3.85897e-06	
308	2.985000e-10	-3.75440e-06	1.800000e+00	3.858931e-06	
309	2.995000e-10	3.754402e-06	1.800000e+00	-3.85897e-06	
310	3.005000e-10	-3.75440e-06	1.800000e+00	3.858931e-06	
311	3.015000e-10	3.754402e-06	1.800000e+00	-3.85897e-06	
312	3.025000e-10	-3.75440e-06	1.800000e+00	3.858931e-06	
313	3.035000e-10	3.754402e-06	1.800000e+00	-3.85897e-06	
314	3.045000e-10	-3.75440e-06	1.800000e+00	3.858931e-06	
315	3.055000e-10	3.754402e-06	1.800000e+00	-3.85897e-06	
316	3.065000e-10	-3.75440e-06	1.800000e+00	3.858931e-06	
317	3.075000e-10	3.754402e-06	1.800000e+00	-3.85897e-06	
318	3.085000e-10	-3.75440e-06	1.800000e+00	3.858931e-06	
319	3.095000e-10	3.754402e-06	1.800000e+00	-3.85897e-06	
320	3.105000e-10	-3.75440e-06	1.800000e+00	3.858931e-06	
321	3.115000e-10	3.754402e-06	1.800000e+00	-3.85897e-06	
322	3.125000e-10	-3.75440e-06	1.800000e+00	3.858931e-06	
323	3.135000e-10	3.754402e-06	1.800000e+00	-3.85897e-06	
324	3.145000e-10	-3.75440e-06	1.800000e+00	3.858931e-06	
325	3.155000e-10	3.754402e-06	1.800000e+00	-3.85897e-06	
326	3.165000e-10	-3.75440e-06	1.800000e+00	3.858931e-06	
327	3.175000e-10	3.754402e-06	1.800000e+00	-3.85897e-06	
328	3.185000e-10	-3.75440e-06	1.800000e+00	3.858931e-06	
329	3.195000e-10	3.754402e-06	1.800000e+00	-3.85897e-06	
330	3.205000e-10	-3.75440e-06	1.800000e+00	3.858931e-06	
331	3.215000e-10	3.754402e-06	1.800000e+00	-3.85897e-06	
